freq/Hz	Re(Z)/Ohm	-Im(Z)/Ohm	|Z|/Ohm	Phase(Z)/deg	time/s	<Ewe>/V	<I>/mA	Cs/”F	Cp/”F	cycle number	I Range	|Ewe|/V	|I|/A	Ns	(Q-Qo)/mA.h	P/W	Re(Y)/Ohm-1	Im(Y)/Ohm-1	|Y|/Ohm-1	Phase(Y)/deg	Re(C)/nF	Im(C)/nF	|C|/nF	Phase(C)/deg	Re(M)	Im(M)	|M|	Phase(M)/deg	Re(Permittivity)	Im(Permittivity)	|Permittivity|	Phase(Permittivity)/deg	Re(Resistivity)/Ohm.cm	Im(Resistivity)/Ohm.cm	|Resistivity|/Ohm.cm	Phase(Resistivity)/deg	Re(Conductivity)/mS/cm	Im(Conductivity)/mS/cm	|Conductivity|/mS/cm	Phase(Conductivity)/deg	Tan(Delta)	Loss Angle(Delta)/deg	dq/mA.h	
1,0000186E+006	2,4480190E+000	2,8662255E-001	2,4647412E+000	-6,6779838E+000	1,111875676901796E+004	2,8149045E+000	1,0776195E-001	5,5526680E-001	7,5089596E-003	1,000000000000000E+000	37	1,3886873E-002	5,6342115E-003	0	3,950324306321434E-005	3,0333959E-004	4,0296945E-001	4,7181059E-002	4,0572211E-001	6,6779838E+000	7,5089617E+000	6,4133385E+001	6,4571480E+001	-8,3322014E+001	0,0000000E+000	0,0000000E+000	0,0000000E+000	8,3322014E+001	0,0000000E+000	0,0000000E+000	0,0000000E+000	-8,3322014E+001	0,0000000E+000	0,0000000E+000	0,0000000E+000	-6,6779838E+000	0,0000000E+000	0,0000000E+000	0,0000000E+000	6,6779838E+000	8,5409155E+000	6,6779838E+000	3,950324306321434E-005
7,9201306E+005	2,4703696E+000	2,7340296E-001	2,4854527E+000	-6,3153887E+000	1,111917578029120E+004	2,8149054E+000	9,7529031E-002	7,3499531E-001	8,8936491E-003	1,000000000000000E+000	37	1,4801792E-002	5,9553706E-003	0	4,921211505536404E-005	2,7453501E-004	3,9989957E-001	4,4258039E-002	4,0234119E-001	6,3153887E+000	8,8936529E+000	8,0359779E+001	8,0850426E+001	-8,3684608E+001	0,0000000E+000	0,0000000E+000	0,0000000E+000	8,3684608E+001	0,0000000E+000	0,0000000E+000	0,0000000E+000	-8,3684608E+001	0,0000000E+000	0,0000000E+000	0,0000000E+000	-6,3153887E+000	0,0000000E+000	0,0000000E+000	0,0000000E+000	6,3153887E+000	9,0356359E+000	6,3153887E+000	9,708871992149707E-006
6,2729181E+005	2,5013402E+000	2,7651426E-001	2,5165775E+000	-6,3082314E+000	1,111959478788445E+004	2,8148983E+000	8,4015302E-002	9,1755682E-001	1,1077644E-002	1,000000000000000E+000	37	1,4992665E-002	5,9575615E-003	0	5,676267919446238E-005	2,3649452E-004	3,9495909E-001	4,3661322E-002	3,9736506E-001	6,3082314E+000	1,1077638E+001	1,0020806E+002	1,0081850E+002	-8,3691772E+001	0,0000000E+000	0,0000000E+000	0,0000000E+000	8,3691772E+001	0,0000000E+000	0,0000000E+000	0,0000000E+000	-8,3691772E+001	0,0000000E+000	0,0000000E+000	0,0000000E+000	-6,3082314E+000	0,0000000E+000	0,0000000E+000	0,0000000E+000	6,3082314E+000	9,0459719E+000	6,3082314E+000	7,550564139098338E-006
4,9682675E+005	2,5232484E+000	2,7116394E-001	2,5377772E+000	-6,1338191E+000	1,112001377966435E+004	2,8149018E+000	1,0123831E-001	1,1813626E+000	1,3487769E-002	1,000000000000000E+000	37	1,4843595E-002	5,8490536E-003	0	6,884226512303576E-005	2,8497592E-004	3,9178973E-001	4,2104155E-002	3,9404562E-001	6,1338191E+000	1,3487770E+001	1,2550708E+002	1,2622974E+002	-8,3866180E+001	0,0000000E+000	0,0000000E+000	0,0000000E+000	8,3866180E+001	0,0000000E+000	0,0000000E+000	0,0000000E+000	-8,3866180E+001	0,0000000E+000	0,0000000E+000	0,0000000E+000	-6,1338191E+000	0,0000000E+000	0,0000000E+000	0,0000000E+000	6,1338191E+000	9,3052511E+000	6,1338191E+000	1,207958592857338E-005
3,9349206E+005	2,5516694E+000	2,7845806E-001	2,5668182E+000	-6,2279177E+000	1,112043277579092E+004	2,8149011E+000	8,4145777E-002	1,4525275E+000	1,7094394E-002	1,000000000000000E+000	37	1,4878070E-002	5,7963082E-003	0	7,652956615359937E-005	2,3686205E-004	3,8728812E-001	4,2263899E-002	3,8958737E-001	6,2279177E+000	1,7094402E+001	1,5664565E+002	1,5757562E+002	-8,3772079E+001	0,0000000E+000	0,0000000E+000	0,0000000E+000	8,3772079E+001	0,0000000E+000	0,0000000E+000	0,0000000E+000	-8,3772079E+001	0,0000000E+000	0,0000000E+000	0,0000000E+000	-6,2279177E+000	0,0000000E+000	0,0000000E+000	0,0000000E+000	6,2279177E+000	9,1635675E+000	6,2279177E+000	7,687301030563605E-006
3,1165566E+005	2,5793431E+000	2,8645918E-001	2,5952013E+000	-6,3372402E+000	1,112085178647749E+004	2,8148890E+000	8,8675208E-002	1,7827169E+000	2,1720298E-002	1,000000000000000E+000	37	1,4983520E-002	5,7735485E-003	0	8,670919193646275E-005	2,4961086E-004	3,8297200E-001	4,2532474E-002	3,8532656E-001	6,3372402E+000	2,1720303E+001	1,9557445E+002	1,9677687E+002	-8,3662758E+001	0,0000000E+000	0,0000000E+000	0,0000000E+000	8,3662758E+001	0,0000000E+000	0,0000000E+000	0,0000000E+000	-8,3662758E+001	0,0000000E+000	0,0000000E+000	0,0000000E+000	-6,3372402E+000	0,0000000E+000	0,0000000E+000	0,0000000E+000	6,3372402E+000	9,0042257E+000	6,3372402E+000	1,017962578286338E-005
2,4683603E+005	2,6093481E+000	3,0615455E-001	2,6272471E+000	-6,6919127E+000	1,112127077463071E+004	2,8148890E+000	7,5720660E-002	2,1060607E+000	2,8598974E-002	1,000000000000000E+000	37	1,4744927E-002	5,6123110E-003	0	9,678646134999063E-005	2,1314525E-004	3,7803340E-001	4,4354621E-002	3,8062656E-001	6,6919127E+000	2,8598959E+001	2,4374835E+002	2,4542038E+002	-8,3308090E+001	0,0000000E+000	0,0000000E+000	0,0000000E+000	8,3308090E+001	0,0000000E+000	0,0000000E+000	0,0000000E+000	-8,3308090E+001	0,0000000E+000	0,0000000E+000	0,0000000E+000	-6,6919127E+000	0,0000000E+000	0,0000000E+000	0,0000000E+000	6,6919127E+000	8,5229769E+000	6,6919127E+000	1,007726941352788E-005
1,9549808E+005	2,6440227E+000	3,2596019E-001	2,6640394E+000	-7,0280719E+000	1,112168976465060E+004	2,8148723E+000	8,6419806E-002	2,4975436E+000	3,7390471E-002	1,000000000000000E+000	37	1,4872530E-002	5,5826986E-003	0	1,124159267332094E-004	2,4326071E-004	3,7254941E-001	4,5928609E-002	3,7536982E-001	7,0280719E+000	3,7390453E+001	3,0329242E+002	3,0558850E+002	-8,2971931E+001	0,0000000E+000	0,0000000E+000	0,0000000E+000	8,2971931E+001	0,0000000E+000	0,0000000E+000	0,0000000E+000	-8,2971931E+001	0,0000000E+000	0,0000000E+000	0,0000000E+000	-7,0280719E+000	0,0000000E+000	0,0000000E+000	0,0000000E+000	7,0280719E+000	8,1114893E+000	7,0280719E+000	1,562946538321881E-005
1,5483967E+005	2,6797681E+000	3,5028657E-001	2,7025650E+000	-7,4472089E+000	1,112210877211054E+004	2,8148715E+000	7,5385161E-002	2,9343669E+000	4,9295705E-002	1,000000000000000E+000	37	1,4709453E-002	5,4427749E-003	0	1,253500162159972E-004	2,1219955E-004	3,6689764E-001	4,7959123E-002	3,7001887E-001	7,4472089E+000	4,9295731E+001	3,7712280E+002	3,8033102E+002	-8,2552788E+001	0,0000000E+000	0,0000000E+000	0,0000000E+000	8,2552788E+001	0,0000000E+000	0,0000000E+000	0,0000000E+000	-8,2552788E+001	0,0000000E+000	0,0000000E+000	0,0000000E+000	-7,4472089E+000	0,0000000E+000	0,0000000E+000	0,0000000E+000	7,4472089E+000	7,6502166E+000	7,4472089E+000	1,293408948278778E-005
1,2263398E+005	2,7182631E+000	3,7778047E-001	2,7443893E+000	-7,9122062E+000	1,112252778079710E+004	2,8148701E+000	7,5161479E-002	3,4353406E+000	6,5096460E-002	1,000000000000000E+000	37	1,4777260E-002	5,3845351E-003	0	1,299742411302610E-004	2,1156980E-004	3,6091095E-001	5,0158903E-002	3,6437979E-001	7,9122062E+000	6,5096481E+001	4,6839194E+002	4,7289380E+002	-8,2087791E+001	0,0000000E+000	0,0000000E+000	0,0000000E+000	8,2087791E+001	0,0000000E+000	0,0000000E+000	0,0000000E+000	-8,2087791E+001	0,0000000E+000	0,0000000E+000	0,0000000E+000	-7,9122062E+000	0,0000000E+000	0,0000000E+000	0,0000000E+000	7,9122062E+000	7,1953511E+000	7,9122062E+000	4,624224914263729E-006
9,7127375E+004	2,7619343E+000	4,1437307E-001	2,7928455E+000	-8,5324478E+000	1,112294678001700E+004	2,8148599E+000	7,7137262E-002	3,9544578E+000	8,7051481E-002	1,000000000000000E+000	37	1,4644807E-002	5,2436870E-003	0	1,335807704792824E-004	2,1713058E-004	3,5409477E-001	5,3124849E-002	3,5805777E-001	8,5324478E+000	8,7051476E+001	5,8022705E+002	5,8672089E+002	-8,1467552E+001	0,0000000E+000	0,0000000E+000	0,0000000E+000	8,1467552E+001	0,0000000E+000	0,0000000E+000	0,0000000E+000	-8,1467552E+001	0,0000000E+000	0,0000000E+000	0,0000000E+000	-8,5324478E+000	0,0000000E+000	0,0000000E+000	0,0000000E+000	8,5324478E+000	6,6653323E+000	8,5324478E+000	3,606529349021423E-006
7,6928070E+004	2,8069756E+000	4,6150550E-001	2,8446615E+000	-9,3366852E+000	1,112336577726353E+004	2,8148646E+000	7,6373033E-002	4,4828935E+000	1,1799157E-001	1,000000000000000E+000	37	1,4559781E-002	5,1182825E-003	0	1,460161997327167E-004	2,1497975E-004	3,4687856E-001	5,7031620E-002	3,5153568E-001	9,3366852E+000	1,1799157E+002	7,1765002E+002	7,2728510E+002	-8,0663315E+001	0,0000000E+000	0,0000000E+000	0,0000000E+000	8,0663315E+001	0,0000000E+000	0,0000000E+000	0,0000000E+000	-8,0663315E+001	0,0000000E+000	0,0000000E+000	0,0000000E+000	-9,3366852E+000	0,0000000E+000	0,0000000E+000	0,0000000E+000	9,3366852E+000	6,0822148E+000	9,3366852E+000	1,243542925343432E-005
6,0922652E+004	2,8575819E+000	5,1513457E-001	2,9036422E+000	-1,0218924E+001	1,112378476339014E+004	2,8148694E+000	8,6606182E-002	5,0713153E+000	1,5961578E-001	1,000000000000000E+000	37	1,4495631E-002	4,9922233E-003	0	1,477765988174748E-004	2,4378509E-004	3,3893192E-001	6,1099052E-002	3,4439504E-001	1,0218924E+001	1,5961581E+002	8,8542920E+002	8,9970111E+002	-7,9781075E+001	0,0000000E+000	0,0000000E+000	0,0000000E+000	7,9781075E+001	0,0000000E+000	0,0000000E+000	0,0000000E+000	-7,9781075E+001	0,0000000E+000	0,0000000E+000	0,0000000E+000	-1,0218924E+001	0,0000000E+000	0,0000000E+000	0,0000000E+000	1,0218924E+001	5,5472531E+000	1,0218924E+001	1,760399084758116E-006
4,8257500E+004	2,9134877E+000	5,7877797E-001	2,9704199E+000	-1,1235797E+001	1,112420378138334E+004	2,8148706E+000	6,6307634E-002	5,6982741E+000	2,1633741E-001	1,000000000000000E+000	37	1,4319888E-002	4,8208297E-003	0	1,535579733379483E-004	1,8664740E-004	3,3020034E-001	6,5595843E-002	3,3665276E-001	1,1235797E+001	2,1633734E+002	1,0890123E+003	1,1102926E+003	-7,8764206E+001	0,0000000E+000	0,0000000E+000	0,0000000E+000	7,8764206E+001	0,0000000E+000	0,0000000E+000	0,0000000E+000	-7,8764206E+001	0,0000000E+000	0,0000000E+000	0,0000000E+000	-1,1235797E+001	0,0000000E+000	0,0000000E+000	0,0000000E+000	1,1235797E+001	5,0338607E+000	1,1235797E+001	5,781374520473449E-006
3,8218156E+004	2,9803371E+000	6,5717292E-001	3,0519314E+000	-1,2434898E+001	1,112448678270349E+004	2,8148711E+000	6,7873359E-002	6,3368106E+000	2,9381943E-001	1,000000000000000E+000	37	1,5394564E-002	5,0442037E-003	0	1,563354263172951E-004	1,9105476E-004	3,1997487E-001	7,0555374E-002	3,2766137E-001	1,2434898E+001	2,9381943E+002	1,3324971E+003	1,3645066E+003	-7,7565102E+001	0,0000000E+000	0,0000000E+000	0,0000000E+000	7,7565102E+001	0,0000000E+000	0,0000000E+000	0,0000000E+000	-7,7565102E+001	0,0000000E+000	0,0000000E+000	0,0000000E+000	-1,2434898E+001	0,0000000E+000	0,0000000E+000	0,0000000E+000	1,2434898E+001	4,5350881E+000	1,2434898E+001	2,777452979346799E-006
3,0266479E+004	3,0525928E+000	7,4458128E-001	3,1420891E+000	-1,3707784E+001	1,112490577392338E+004	2,8148668E+000	7,3949873E-002	7,0622993E+000	3,9658234E-001	1,000000000000000E+000	37	1,4314515E-002	4,5557315E-003	0	1,661625894407431E-004	2,0815904E-004	3,0919459E-001	7,5418018E-002	3,1825960E-001	1,3707784E+001	3,9658240E+002	1,6258861E+003	1,6735541E+003	-7,6292213E+001	0,0000000E+000	0,0000000E+000	0,0000000E+000	7,6292213E+001	0,0000000E+000	0,0000000E+000	0,0000000E+000	-7,6292213E+001	0,0000000E+000	0,0000000E+000	0,0000000E+000	-1,3707784E+001	0,0000000E+000	0,0000000E+000	0,0000000E+000	1,3707784E+001	4,0997443E+000	1,3707784E+001	9,827163123448057E-006
2,3975656E+004	3,1445167E+000	8,4780437E-001	3,2568018E+000	-1,5088936E+001	1,112518878593680E+004	2,8148751E+000	8,6121544E-002	7,8298602E+000	5,3059435E-001	1,000000000000000E+000	37	1,4515983E-002	4,4571282E-003	0	1,743605882383159E-004	2,4242139E-004	2,9646352E-001	7,9930581E-002	3,0704969E-001	1,5088936E+001	5,3059436E+002	1,9679810E+003	2,0382540E+003	-7,4911064E+001	0,0000000E+000	0,0000000E+000	0,0000000E+000	7,4911064E+001	0,0000000E+000	0,0000000E+000	0,0000000E+000	-7,4911064E+001	0,0000000E+000	0,0000000E+000	0,0000000E+000	-1,5088936E+001	0,0000000E+000	0,0000000E+000	0,0000000E+000	1,5088936E+001	3,7090123E+000	1,5088936E+001	8,197998797572742E-006
1,8983818E+004	3,2546463E+000	9,6561742E-001	3,3948696E+000	-1,6525038E+001	1,112547178563027E+004	2,8148739E+000	8,5841939E-002	8,6822338E+000	7,0241773E-001	1,000000000000000E+000	37	1,4459143E-002	4,2591160E-003	0	1,763585889292622E-004	2,4163423E-004	2,8239539E-001	8,3783574E-002	2,9456213E-001	1,6525038E+001	7,0241785E+002	2,3675229E+003	2,4695254E+003	-7,3474960E+001	0,0000000E+000	0,0000000E+000	0,0000000E+000	7,3474960E+001	0,0000000E+000	0,0000000E+000	0,0000000E+000	-7,3474960E+001	0,0000000E+000	0,0000000E+000	0,0000000E+000	-1,6525038E+001	0,0000000E+000	0,0000000E+000	0,0000000E+000	1,6525038E+001	3,3705339E+000	1,6525038E+001	1,998000690946368E-006
1,5040457E+004	3,3793950E+000	1,0910530E+000	3,5511558E+000	-1,7892908E+001	1,112575477367034E+004	2,8148742E+000	7,4136235E-002	9,6986942E+000	9,1551507E-001	1,000000000000000E+000	37	1,4194405E-002	3,9971224E-003	0	1,836873269128846E-004	2,0868417E-004	2,6797822E-001	8,6517975E-002	2,8159845E-001	1,7892908E+001	9,1551489E+002	2,8356890E+003	2,9798154E+003	-7,2107094E+001	0,0000000E+000	0,0000000E+000	0,0000000E+000	7,2107094E+001	0,0000000E+000	0,0000000E+000	0,0000000E+000	-7,2107094E+001	0,0000000E+000	0,0000000E+000	0,0000000E+000	-1,7892908E+001	0,0000000E+000	0,0000000E+000	0,0000000E+000	1,7892908E+001	3,0973701E+000	1,7892908E+001	7,328737983622368E-006
1,1913598E+004	3,5306392E+000	1,2326249E+000	3,7396226E+000	-1,9245234E+001	1,112603777144378E+004	2,8148708E+000	6,8730727E-002	1,0837929E+001	1,1774774E+000	1,000000000000000E+000	37	1,3732890E-002	3,6722661E-003	0	1,914035034335684E-004	1,9346812E-004	2,5246304E-001	8,8140473E-002	2,6740667E-001	1,9245234E+001	1,1774773E+003	3,3726790E+003	3,5723125E+003	-7,0754768E+001	0,0000000E+000	0,0000000E+000	0,0000000E+000	7,0754768E+001	0,0000000E+000	0,0000000E+000	0,0000000E+000	-7,0754768E+001	0,0000000E+000	0,0000000E+000	0,0000000E+000	-1,9245234E+001	0,0000000E+000	0,0000000E+000	0,0000000E+000	1,9245234E+001	2,8643258E+000	1,9245234E+001	7,716176520683818E-006
9,4374268E+003	3,7032423E+000	1,3851320E+000	3,9538076E+000	-2,0507416E+001	1,112632291873739E+004	2,8148575E+000	8,9737587E-002	1,2175179E+001	1,4942615E+000	1,000000000000000E+000	37	1,4996830E-002	3,7930096E-003	0	1,971954295481555E-004	2,5259852E-004	2,3689236E-001	8,8605374E-002	2,5292075E-001	2,0507416E+001	1,4942615E+003	3,9950076E+003	4,2653140E+003	-6,9492584E+001	0,0000000E+000	0,0000000E+000	0,0000000E+000	6,9492584E+001	0,0000000E+000	0,0000000E+000	0,0000000E+000	-6,9492584E+001	0,0000000E+000	0,0000000E+000	0,0000000E+000	-2,0507416E+001	0,0000000E+000	0,0000000E+000	0,0000000E+000	2,0507416E+001	2,6735663E+000	2,0507416E+001	5,791926114587090E-006
7,4706152E+003	3,9266791E+000	1,5517660E+000	4,2221780E+000	-2,1563206E+001	1,112685647844273E+004	2,8148565E+000	1,2966772E-003	1,3728955E+001	1,8544576E+000	1,000000000000000E+000	38	1,5356390E-002	3,6370780E-003	0	1,967183083085490E-004	3,6499603E-006	2,2026847E-001	8,7046869E-002	2,3684458E-001	2,1563206E+001	1,8544575E+003	4,6926279E+003	5,0457676E+003	-6,8436798E+001	0,0000000E+000	0,0000000E+000	0,0000000E+000	6,8436798E+001	0,0000000E+000	0,0000000E+000	0,0000000E+000	-6,8436798E+001	0,0000000E+000	0,0000000E+000	0,0000000E+000	-2,1563206E+001	0,0000000E+000	0,0000000E+000	0,0000000E+000	2,1563206E+001	2,5304582E+000	2,1563206E+001	-4,771212396064643E-007
5,9169902E+003	4,1631927E+000	1,7215561E+000	4,5051003E+000	-2,2465986E+001	1,112726657867554E+004	2,8148439E+000	-1,1161811E-003	1,5624211E+001	2,2815580E+000	1,000000000000000E+000	38	1,5266524E-002	3,3887201E-003	0	1,947670378796239E-004	-3,1418756E-006	2,0512453E-001	8,4822729E-002	2,2197065E-001	2,2465986E+001	2,2815581E+003	5,5174302E+003	5,9705562E+003	-6,7534012E+001	0,0000000E+000	0,0000000E+000	0,0000000E+000	6,7534012E+001	0,0000000E+000	0,0000000E+000	0,0000000E+000	-6,7534012E+001	0,0000000E+000	0,0000000E+000	0,0000000E+000	-2,2465986E+001	0,0000000E+000	0,0000000E+000	0,0000000E+000	2,2465986E+001	2,4182732E+000	2,2465986E+001	-1,951270428925166E-006
4,6864971E+003	4,4379358E+000	1,8949642E+000	4,8255739E+000	-2,3122107E+001	1,112772900149753E+004	2,8148458E+000	-1,8005283E-003	1,7921352E+001	2,7635980E+000	1,000000000000000E+000	38	1,5160435E-002	3,1416854E-003	0	1,953427494316517E-004	-5,0682092E-006	1,9058253E-001	8,1377260E-002	2,0722924E-001	2,3122107E+001	2,7635981E+003	6,4722441E+003	7,0375718E+003	-6,6877892E+001	0,0000000E+000	0,0000000E+000	0,0000000E+000	6,6877892E+001	0,0000000E+000	0,0000000E+000	0,0000000E+000	-6,6877892E+001	0,0000000E+000	0,0000000E+000	0,0000000E+000	-2,3122107E+001	0,0000000E+000	0,0000000E+000	0,0000000E+000	2,3122107E+001	2,3419628E+000	2,3122107E+001	5,757115520278299E-007
3,7111863E+003	4,7534747E+000	2,0697248E+000	5,1845231E+000	-2,3528936E+001	1,112819099983945E+004	2,8148429E+000	-2,6023351E-003	2,0720240E+001	3,3021924E+000	1,000000000000000E+000	38	1,5051616E-002	2,9031825E-003	0	1,924022971989794E-004	-7,3251645E-006	1,7684531E-001	7,7000752E-002	1,9288178E-001	2,3528936E+001	3,3021924E+003	7,5840454E+003	8,2717725E+003	-6,6471062E+001	0,0000000E+000	0,0000000E+000	0,0000000E+000	6,6471062E+001	0,0000000E+000	0,0000000E+000	0,0000000E+000	-6,6471062E+001	0,0000000E+000	0,0000000E+000	0,0000000E+000	-2,3528936E+001	0,0000000E+000	0,0000000E+000	0,0000000E+000	2,3528936E+001	2,2966700E+000	2,3528936E+001	-2,940452232672312E-006
2,9409380E+003	5,1141491E+000	2,2305272E+000	5,5794063E+000	-2,3564337E+001	1,112865299988809E+004	2,8148527E+000	-5,0114556E-003	2,4262007E+001	3,8776250E+000	1,000000000000000E+000	38	1,4956590E-002	2,6806777E-003	0	1,899409551938168E-004	-1,4106509E-005	1,6428483E-001	7,1652532E-002	1,7923054E-001	2,3564337E+001	3,8776248E+003	8,8906123E+003	9,6994307E+003	-6,6435661E+001	0,0000000E+000	0,0000000E+000	0,0000000E+000	6,6435661E+001	0,0000000E+000	0,0000000E+000	0,0000000E+000	-6,6435661E+001	0,0000000E+000	0,0000000E+000	0,0000000E+000	-2,3564337E+001	0,0000000E+000	0,0000000E+000	0,0000000E+000	2,3564337E+001	2,2927983E+000	2,3564337E+001	-2,461342005162596E-006
2,3292527E+003	5,5225935E+000	2,3693864E+000	6,0094118E+000	-2,3221031E+001	1,112911511911002E+004	2,8148458E+000	-5,7796892E-003	2,8838165E+001	4,4830699E+000	1,000000000000000E+000	38	1,4876566E-002	2,4755443E-003	0	1,904908927356850E-004	-1,6268934E-005	1,5292522E-001	6,5610290E-002	1,6640563E-001	2,3221031E+001	4,4830698E+003	1,0449191E+004	1,1370291E+004	-6,6778969E+001	0,0000000E+000	0,0000000E+000	0,0000000E+000	6,6778969E+001	0,0000000E+000	0,0000000E+000	0,0000000E+000	-6,6778969E+001	0,0000000E+000	0,0000000E+000	0,0000000E+000	-2,3221031E+001	0,0000000E+000	0,0000000E+000	0,0000000E+000	2,3221031E+001	2,3308117E+000	2,3221031E+001	5,499375418682208E-007
1,8444061E+003	5,9735074E+000	2,4673486E+000	6,4630179E+000	-2,2443001E+001	1,112957709038530E+004	2,8148537E+000	-5,8952984E-003	3,4973015E+001	5,0971026E+000	1,000000000000000E+000	38	1,4817093E-002	2,2925967E-003	0	1,877014645554332E-004	-1,6594402E-005	1,4300746E-001	5,9069023E-002	1,5472648E-001	2,2443001E+001	5,0971021E+003	1,2340201E+004	1,3351442E+004	-6,7556999E+001	0,0000000E+000	0,0000000E+000	0,0000000E+000	6,7556999E+001	0,0000000E+000	0,0000000E+000	0,0000000E+000	-6,7556999E+001	0,0000000E+000	0,0000000E+000	0,0000000E+000	-2,2443001E+001	0,0000000E+000	0,0000000E+000	0,0000000E+000	2,2443001E+001	2,4210229E+000	2,2443001E+001	-2,789428180251783E-006
