freq/Hz	Re(Z)/Ohm	Im(Z)/Ohm	
1,0000186E+006	4,3312578E+000	-3,0253967E-002
7,9201306E+005	4,3781290E+000	-1,1201470E-001
6,2729181E+005	4,4201713E+000	-1,8242306E-001
4,9682675E+005	4,4695883E+000	-2,4050695E-001
3,9349206E+005	4,5141854E+000	-2,9584369E-001
3,1165566E+005	4,5643768E+000	-3,4311196E-001
2,4683603E+005	4,6155515E+000	-3,8560352E-001
1,9549808E+005	4,6702914E+000	-4,2823172E-001
1,5483967E+005	4,7263331E+000	-4,7223657E-001
1,2263398E+005	4,7866387E+000	-5,1831698E-001
9,7127375E+004	4,8499341E+000	-5,7101184E-001
7,6928070E+004	4,9173484E+000	-6,2881529E-001
6,0922652E+004	4,9903212E+000	-6,9718623E-001
4,8257500E+004	5,0698690E+000	-7,7076358E-001
3,8218156E+004	5,1656065E+000	-8,5693890E-001
3,0266479E+004	5,2720284E+000	-9,5059139E-001
2,3975656E+004	5,3936152E+000	-1,0626397E+000
1,8983818E+004	5,5340838E+000	-1,1846789E+000
1,5040457E+004	5,7040796E+000	-1,3110090E+000
1,1913598E+004	5,9068890E+000	-1,4454086E+000
9,4374268E+003	6,1350665E+000	-1,5736848E+000
7,4706152E+003	6,4047394E+000	-1,6969180E+000
5,9169902E+003	6,7031770E+000	-1,7986757E+000
4,6864971E+003	7,0247164E+000	-1,8735470E+000
3,7111863E+003	7,3698525E+000	-1,9168924E+000
2,9409380E+003	7,7146330E+000	-1,9137651E+000
2,3292527E+003	8,0480900E+000	-1,8719163E+000
1,8444061E+003	8,3596859E+000	-1,8060222E+000
1,4604702E+003	8,6429176E+000	-1,7162839E+000
1,1568517E+003	8,8880301E+000	-1,6196836E+000
9,1646613E+002	9,0973492E+000	-1,5279235E+000
7,2569403E+002	9,2865181E+000	-1,4519761E+000
5,7481604E+002	9,4571877E+000	-1,4011384E+000
4,5514554E+002	9,6062031E+000	-1,3608649E+000
3,6057681E+002	9,7499323E+000	-1,3556131E+000
2,8563962E+002	9,9045258E+000	-1,3686790E+000
2,2623093E+002	1,0061989E+001	-1,4042094E+000
1,7914027E+002	1,0232886E+001	-1,4660527E+000
1,4186128E+002	1,0420520E+001	-1,5448163E+000
1,1233688E+002	1,0633352E+001	-1,6301306E+000
8,9003143E+001	1,0882837E+001	-1,7154320E+000
7,0473549E+001	1,1154728E+001	-1,7993593E+000
5,5839867E+001	1,1440677E+001	-1,8598976E+000
4,4221729E+001	1,1744242E+001	-1,9084713E+000
3,5011173E+001	1,2063486E+001	-1,9283195E+000
2,7736723E+001	1,2377959E+001	-1,9227444E+000
2,1960661E+001	1,2673878E+001	-1,9081630E+000
1,7399788E+001	1,2967273E+001	-1,8757511E+000
1,3786777E+001	1,3242676E+001	-1,8454015E+000
1,0911301E+001	1,3507245E+001	-1,7950094E+000
8,6421518E+000	1,3747771E+001	-1,7763598E+000
6,8470612E+000	1,3963853E+001	-1,7622119E+000
5,4197016E+000	1,4199248E+001	-1,7572504E+000
4,2925849E+000	1,4422312E+001	-1,7315590E+000
3,4004376E+000	1,4632571E+001	-1,7583561E+000
2,6930346E+000	1,4851281E+001	-1,7805187E+000
2,1345615E+000	1,5087154E+001	-1,7709173E+000
1,6891882E+000	1,5218217E+001	-1,7432413E+000
1,3384447E+000	1,5500969E+001	-1,8735296E+000
1,0601133E+000	1,5525892E+001	-1,7945082E+000
8,3950907E-001	1,5909384E+001	-1,8134454E+000
6,6517669E-001	1,5923363E+001	-2,0858126E+000
5,2644908E-001	1,5900284E+001	-1,8841923E+000
4,1728988E-001	1,6315029E+001	-1,7891819E+000
3,3019856E-001	1,6641022E+001	-2,1845312E+000
2,6168153E-001	1,6403435E+001	-2,4707110E+000
2,0727515E-001	1,6273657E+001	-2,2233338E+000
1,6422123E-001	1,6632315E+001	-1,9328871E+000
1,3006553E-001	1,7244457E+001	-2,0431325E+000
1,0297224E-001	1,7572891E+001	-2,5798233E+000
8,1555545E-002	1,7420731E+001	-2,9429114E+000
6,4581856E-002	1,7329000E+001	-2,8424139E+000
5,1141009E-002	1,7638350E+001	-2,6031141E+000
4,0509924E-002	1,8261707E+001	-2,5949869E+000
3,2105520E-002	1,8900097E+001	-2,8761380E+000
2,5420561E-002	1,9358667E+001	-3,2708359E+000
2,0124838E-002	1,9762754E+001	-3,5487895E+000
1,5937239E-002	2,0310715E+001	-3,6837025E+000
1,2632385E-002	2,1145800E+001	-3,9578671E+000
1,0003746E-002	2,1851009E+001	-4,2563400E+000
1,0000186E+006	5,0878167E+000	-4,9459293E-002
7,9201306E+005	5,1348801E+000	-1,4486279E-001
6,2729181E+005	5,1876550E+000	-2,1745978E-001
4,9682675E+005	5,2382016E+000	-2,8427589E-001
3,9349206E+005	5,2931170E+000	-3,4397292E-001
3,1165566E+005	5,3481164E+000	-3,9619014E-001
2,4683603E+005	5,4050217E+000	-4,4924849E-001
1,9549808E+005	5,4661036E+000	-4,9542993E-001
1,5483967E+005	5,5321527E+000	-5,4701722E-001
1,2263398E+005	5,5982585E+000	-6,0016578E-001
9,7127375E+004	5,6699286E+000	-6,5774924E-001
7,6928070E+004	5,7477074E+000	-7,2374171E-001
6,0922652E+004	5,8330727E+000	-7,9306763E-001
4,8257500E+004	5,9255376E+000	-8,8247347E-001
3,8218156E+004	6,0302677E+000	-9,7343498E-001
3,0266479E+004	6,1452718E+000	-1,0812312E+000
2,3975656E+004	6,2829790E+000	-1,2034198E+000
1,8983818E+004	6,4434900E+000	-1,3363663E+000
1,5040457E+004	6,6338096E+000	-1,4801371E+000
1,1913598E+004	6,8533373E+000	-1,6296043E+000
9,4374268E+003	7,1083207E+000	-1,7852002E+000
7,4706152E+003	7,4061723E+000	-1,9269854E+000
5,9169902E+003	7,7405167E+000	-2,0547142E+000
4,6864971E+003	8,1018915E+000	-2,1553516E+000
3,7111863E+003	8,4965849E+000	-2,2078738E+000
2,9409380E+003	8,9054260E+000	-2,2198765E+000
2,3292527E+003	9,2912369E+000	-2,1855223E+000
1,8444061E+003	9,6618242E+000	-2,1122086E+000
1,4604702E+003	1,0000078E+001	-2,0106595E+000
1,1568517E+003	1,0294314E+001	-1,8932151E+000
9,1646613E+002	1,0551804E+001	-1,7789043E+000
7,2569403E+002	1,0775684E+001	-1,6768138E+000
5,7481604E+002	1,0971066E+001	-1,5932474E+000
4,5514554E+002	1,1140911E+001	-1,5280906E+000
3,6057681E+002	1,1309577E+001	-1,5047539E+000
2,8563962E+002	1,1466398E+001	-1,4956852E+000
2,2623093E+002	1,1628799E+001	-1,5196049E+000
1,7914027E+002	1,1805746E+001	-1,5661863E+000
1,4186128E+002	1,2000725E+001	-1,6328573E+000
1,1233688E+002	1,2217270E+001	-1,7178520E+000
8,9003143E+001	1,2464555E+001	-1,8128338E+000
7,0473549E+001	1,2739541E+001	-1,8913298E+000
5,5839867E+001	1,3033716E+001	-1,9710642E+000
4,4221729E+001	1,3357923E+001	-2,0231652E+000
3,5011173E+001	1,3691657E+001	-2,0511913E+000
2,7736723E+001	1,4029693E+001	-2,0633051E+000
2,1960661E+001	1,4347225E+001	-2,0364454E+000
1,7399788E+001	1,4658375E+001	-2,0035641E+000
1,3786777E+001	1,4945841E+001	-1,9667889E+000
1,0911301E+001	1,5221815E+001	-1,9488479E+000
8,6421518E+000	1,5463414E+001	-1,9130595E+000
6,8470612E+000	1,5733706E+001	-1,8675160E+000
5,4197016E+000	1,5954052E+001	-1,8657309E+000
4,2925849E+000	1,6200993E+001	-1,8798829E+000
3,4004376E+000	1,6437908E+001	-1,8762383E+000
2,6930346E+000	1,6647118E+001	-1,8770154E+000
2,1345615E+000	1,6830973E+001	-1,9502172E+000
1,6891882E+000	1,7144867E+001	-1,9410625E+000
1,3384447E+000	1,7186127E+001	-1,9522640E+000
1,0601133E+000	1,7575787E+001	-1,9589757E+000
8,3950907E-001	1,7551716E+001	-2,1802497E+000
6,6517669E-001	1,7661747E+001	-1,9265720E+000
5,2644908E-001	1,8131102E+001	-2,0356910E+000
4,1728988E-001	1,8092945E+001	-2,4802563E+000
3,3019856E-001	1,7800346E+001	-2,3504004E+000
2,6168153E-001	1,8035713E+001	-1,9960271E+000
2,0727515E-001	1,8637123E+001	-2,0798073E+000
1,6422123E-001	1,8898447E+001	-2,7105496E+000
1,3006553E-001	1,8503145E+001	-3,0871696E+000
1,0297224E-001	1,8205284E+001	-2,8170900E+000
8,1555545E-002	1,8461729E+001	-2,3924124E+000
6,4581856E-002	1,9126066E+001	-2,3237798E+000
5,1141009E-002	1,9736300E+001	-2,7791562E+000
4,0509924E-002	1,9866238E+001	-3,3235734E+000
3,2105520E-002	1,9860069E+001	-3,4911871E+000
2,5420561E-002	2,0178598E+001	-3,4088128E+000
2,0124838E-002	2,0851768E+001	-3,4952478E+000
1,5937239E-002	2,1587748E+001	-3,7391889E+000
1,2632385E-002	2,2260609E+001	-4,0452771E+000
1,0003746E-002	2,2999393E+001	-4,3496203E+000
1,0000186E+006	5,4486814E+000	-6,1144553E-002
7,9201306E+005	5,5091782E+000	-1,5624927E-001
6,2729181E+005	5,5632277E+000	-2,3807798E-001
4,9682675E+005	5,6184902E+000	-3,0623192E-001
3,9349206E+005	5,6728044E+000	-3,6866900E-001
3,1165566E+005	5,7320852E+000	-4,2183578E-001
2,4683603E+005	5,7962928E+000	-4,7562450E-001
1,9549808E+005	5,8626842E+000	-5,2693903E-001
1,5483967E+005	5,9327583E+000	-5,7984704E-001
1,2263398E+005	6,0012708E+000	-6,3487601E-001
9,7127375E+004	6,0792027E+000	-6,9680780E-001
7,6928070E+004	6,1604538E+000	-7,6524597E-001
6,0922652E+004	6,2545767E+000	-8,4130275E-001
4,8257500E+004	6,3511124E+000	-9,2664748E-001
3,8218156E+004	6,4614701E+000	-1,0237871E+000
3,0266479E+004	6,5880127E+000	-1,1331015E+000
2,3975656E+004	6,7274027E+000	-1,2542725E+000
1,8983818E+004	6,8933468E+000	-1,3931932E+000
1,5040457E+004	7,0916409E+000	-1,5447398E+000
1,1913598E+004	7,3220625E+000	-1,6987751E+000
9,4374268E+003	7,5850883E+000	-1,8530896E+000
7,4706152E+003	7,8913207E+000	-2,0029128E+000
5,9169902E+003	8,2368364E+000	-2,1381719E+000
4,6864971E+003	8,6123505E+000	-2,2425902E+000
3,7111863E+003	9,0231924E+000	-2,3148289E+000
2,9409380E+003	9,4391928E+000	-2,3223855E+000
2,3292527E+003	9,8615360E+000	-2,2938406E+000
1,8444061E+003	1,0250443E+001	-2,2153137E+000
1,4604702E+003	1,0601789E+001	-2,1098013E+000
1,1568517E+003	1,0920313E+001	-1,9948090E+000
9,1646613E+002	1,1193460E+001	-1,8754970E+000
7,2569403E+002	1,1430140E+001	-1,7579187E+000
5,7481604E+002	1,1636550E+001	-1,6693445E+000
4,5514554E+002	1,1826666E+001	-1,6008841E+000
3,6057681E+002	1,1999385E+001	-1,5648775E+000
2,8563962E+002	1,2154521E+001	-1,5428669E+000
2,2623093E+002	1,2326321E+001	-1,5691539E+000
1,7914027E+002	1,2502717E+001	-1,6066005E+000
1,4186128E+002	1,2702319E+001	-1,6712363E+000
1,1233688E+002	1,2924506E+001	-1,7518036E+000
8,9003143E+001	1,3167172E+001	-1,8490640E+000
7,0473549E+001	1,3441267E+001	-1,9323230E+000
5,5839867E+001	1,3751135E+001	-2,0309937E+000
4,4221729E+001	1,4070981E+001	-2,0976958E+000
3,5011173E+001	1,4415114E+001	-2,1476107E+000
2,7736723E+001	1,4774938E+001	-2,1479919E+000
2,1960661E+001	1,5108172E+001	-2,1400185E+000
1,7399788E+001	1,5443090E+001	-2,1115615E+000
1,3786777E+001	1,5760538E+001	-2,0793970E+000
1,0911301E+001	1,6039461E+001	-2,0189855E+000
8,6421518E+000	1,6326498E+001	-2,0083485E+000
6,8470612E+000	1,6559683E+001	-1,9976275E+000
5,4197016E+000	1,6826513E+001	-1,9893696E+000
4,2925849E+000	1,7073595E+001	-1,9705738E+000
3,4004376E+000	1,7327194E+001	-2,0040748E+000
2,6930346E+000	1,7575003E+001	-2,0342460E+000
2,1345615E+000	1,7834005E+001	-2,0202618E+000
1,6891882E+000	1,7963312E+001	-2,0260201E+000
1,3384447E+000	1,8326544E+001	-2,1242633E+000
1,0601133E+000	1,8314789E+001	-2,1135571E+000
8,3950907E-001	1,8726671E+001	-2,0415416E+000
6,6517669E-001	1,8853514E+001	-2,3973534E+000
5,2644908E-001	1,8690767E+001	-2,2477598E+000
4,1728988E-001	1,9061989E+001	-2,0177522E+000
3,3019856E-001	1,9533499E+001	-2,3660643E+000
2,6168153E-001	1,9343082E+001	-2,8695745E+000
2,0727515E-001	1,8973391E+001	-2,7182298E+000
1,6422123E-001	1,9154341E+001	-2,2813444E+000
1,3006553E-001	1,9819477E+001	-2,1939790E+000
1,0297224E-001	2,0380808E+001	-2,7413459E+000
8,1555545E-002	2,0259962E+001	-3,3966668E+000
6,4581856E-002	1,9885113E+001	-3,4445643E+000
5,1141009E-002	1,9947468E+001	-3,0687821E+000
4,0509924E-002	2,0537277E+001	-2,8431308E+000
3,2105520E-002	2,1280743E+001	-3,0288131E+000
2,5420561E-002	2,1803699E+001	-3,5080125E+000
2,0124838E-002	2,2119934E+001	-3,8822677E+000
1,5937239E-002	2,2359602E+001	-4,1269593E+000
1,2632385E-002	2,2745481E+001	-4,1269650E+000
1,0003746E-002	2,3480787E+001	-4,3712649E+000
1,0000186E+006	5,5946455E+000	-6,9115728E-002
7,9201306E+005	5,6595130E+000	-1,6720235E-001
6,2729181E+005	5,7169838E+000	-2,4836172E-001
4,9682675E+005	5,7742629E+000	-3,2217351E-001
3,9349206E+005	5,8338566E+000	-3,8333842E-001
3,1165566E+005	5,8990855E+000	-4,4124600E-001
2,4683603E+005	5,9627357E+000	-4,9463964E-001
1,9549808E+005	6,0318646E+000	-5,4527372E-001
1,5483967E+005	6,1039186E+000	-6,0055703E-001
1,2263398E+005	6,1766624E+000	-6,5483475E-001
9,7127375E+004	6,2572231E+000	-7,1553338E-001
7,6928070E+004	6,3440661E+000	-7,8568095E-001
6,0922652E+004	6,4386086E+000	-8,6862642E-001
4,8257500E+004	6,5403175E+000	-9,5280963E-001
3,8218156E+004	6,6557565E+000	-1,0491186E+000
3,0266479E+004	6,7865086E+000	-1,1586462E+000
2,3975656E+004	6,9330540E+000	-1,2839104E+000
1,8983818E+004	7,0994329E+000	-1,4233866E+000
1,5040457E+004	7,2980146E+000	-1,5720055E+000
1,1913598E+004	7,5293632E+000	-1,7285715E+000
9,4374268E+003	7,8054748E+000	-1,8902855E+000
7,4706152E+003	8,1152782E+000	-2,0409057E+000
5,9169902E+003	8,4680281E+000	-2,1727946E+000
4,6864971E+003	8,8552017E+000	-2,2774081E+000
3,7111863E+003	9,2717514E+000	-2,3407907E+000
2,9409380E+003	9,6881294E+000	-2,3530354E+000
2,3292527E+003	1,0110809E+001	-2,3210313E+000
1,8444061E+003	1,0510223E+001	-2,2436359E+000
1,4604702E+003	1,0867550E+001	-2,1343045E+000
1,1568517E+003	1,1184995E+001	-2,0101793E+000
9,1646613E+002	1,1457590E+001	-1,8869728E+000
7,2569403E+002	1,1695115E+001	-1,7737306E+000
5,7481604E+002	1,1906552E+001	-1,6825876E+000
4,5514554E+002	1,2094514E+001	-1,6143503E+000
3,6057681E+002	1,2273983E+001	-1,5723339E+000
2,8563962E+002	1,2446341E+001	-1,5649594E+000
2,2623093E+002	1,2612833E+001	-1,5804881E+000
1,7914027E+002	1,2790499E+001	-1,6216713E+000
1,4186128E+002	1,2990343E+001	-1,6775488E+000
1,1233688E+002	1,3212772E+001	-1,7722843E+000
8,9003143E+001	1,3456793E+001	-1,8596408E+000
7,0473549E+001	1,3735935E+001	-1,9570441E+000
5,5839867E+001	1,4048542E+001	-2,0502343E+000
4,4221729E+001	1,4372651E+001	-2,1239100E+000
3,5011173E+001	1,4722366E+001	-2,1591859E+000
2,7736723E+001	1,5079398E+001	-2,1875196E+000
2,1960661E+001	1,5436575E+001	-2,1801207E+000
1,7399788E+001	1,5775435E+001	-2,1557677E+000
1,3786777E+001	1,6094345E+001	-2,1182647E+000
1,0911301E+001	1,6384445E+001	-2,0627642E+000
8,6421518E+000	1,6674795E+001	-2,0451548E+000
6,8470612E+000	1,6925993E+001	-2,0525463E+000
5,4197016E+000	1,7202744E+001	-2,0430522E+000
4,2925849E+000	1,7440067E+001	-2,0343246E+000
3,4004376E+000	1,7709528E+001	-2,0501893E+000
2,6930346E+000	1,7973209E+001	-2,0783722E+000
2,1345615E+000	1,8222239E+001	-2,0646644E+000
1,6891882E+000	1,8381348E+001	-2,1534648E+000
1,3384447E+000	1,8751751E+001	-2,1217043E+000
1,0601133E+000	1,8805054E+001	-2,2878337E+000
8,3950907E-001	1,9077084E+001	-2,0851958E+000
6,6517669E-001	1,9462122E+001	-2,3454764E+000
5,2644908E-001	1,9264179E+001	-2,5144157E+000
4,1728988E-001	1,9358438E+001	-2,1875522E+000
3,3019856E-001	1,9901180E+001	-2,1683877E+000
2,6168153E-001	2,0177416E+001	-2,7338643E+000
2,0727515E-001	1,9786560E+001	-3,0645511E+000
1,6422123E-001	1,9546989E+001	-2,7292416E+000
1,3006553E-001	1,9928621E+001	-2,3120091E+000
1,0297224E-001	2,0679176E+001	-2,3857141E+000
8,1555545E-002	2,1146591E+001	-3,0493600E+000
6,4581856E-002	2,0940620E+001	-3,6190000E+000
5,1141009E-002	2,0674793E+001	-3,5383415E+000
4,0509924E-002	2,0939646E+001	-3,2030785E+000
3,2105520E-002	2,1623602E+001	-3,0956533E+000
2,5420561E-002	2,2378651E+001	-3,3473878E+000
2,0124838E-002	2,2923523E+001	-3,7995634E+000
1,5937239E-002	2,3327196E+001	-4,1194153E+000
1,2632385E-002	2,3859566E+001	-4,2827725E+000
1,0003746E-002	2,4476866E+001	-4,5268369E+000
1,0000186E+006	5,8396339E+000	-7,5359516E-002
7,9201306E+005	5,9019008E+000	-1,7828882E-001
6,2729181E+005	5,9631305E+000	-2,6448113E-001
4,9682675E+005	6,0258512E+000	-3,3622381E-001
3,9349206E+005	6,0844879E+000	-4,0211537E-001
3,1165566E+005	6,1511922E+000	-4,5756042E-001
2,4683603E+005	6,2238803E+000	-5,1628071E-001
1,9549808E+005	6,2963405E+000	-5,7136047E-001
1,5483967E+005	6,3705511E+000	-6,2668723E-001
1,2263398E+005	6,4528170E+000	-6,8295932E-001
9,7127375E+004	6,5359206E+000	-7,4757212E-001
7,6928070E+004	6,6260867E+000	-8,1748319E-001
6,0922652E+004	6,7213993E+000	-8,9352494E-001
4,8257500E+004	6,8277016E+000	-9,8192585E-001
3,8218156E+004	6,9505134E+000	-1,0824201E+000
3,0266479E+004	7,0822163E+000	-1,1911801E+000
2,3975656E+004	7,2336936E+000	-1,3237754E+000
1,8983818E+004	7,4084001E+000	-1,4600326E+000
1,5040457E+004	7,6138816E+000	-1,6153505E+000
1,1913598E+004	7,8519459E+000	-1,7785670E+000
9,4374268E+003	8,1285973E+000	-1,9417137E+000
7,4706152E+003	8,4431076E+000	-2,0961661E+000
5,9169902E+003	8,8080988E+000	-2,2359080E+000
4,6864971E+003	9,1984339E+000	-2,3540382E+000
3,7111863E+003	9,6295338E+000	-2,4299831E+000
2,9409380E+003	1,0064903E+001	-2,4570503E+000
2,3292527E+003	1,0510853E+001	-2,4347265E+000
1,8444061E+003	1,0930273E+001	-2,3592687E+000
1,4604702E+003	1,1314433E+001	-2,2598529E+000
1,1568517E+003	1,1655604E+001	-2,1288640E+000
9,1646613E+002	1,1952111E+001	-2,0024903E+000
7,2569403E+002	1,2212728E+001	-1,8783072E+000
5,7481604E+002	1,2440382E+001	-1,7776777E+000
4,5514554E+002	1,2640910E+001	-1,7046143E+000
3,6057681E+002	1,2833898E+001	-1,6550180E+000
2,8563962E+002	1,3005561E+001	-1,6331006E+000
2,2623093E+002	1,3180175E+001	-1,6407126E+000
1,7914027E+002	1,3366179E+001	-1,6756550E+000
1,4186128E+002	1,3573850E+001	-1,7432319E+000
1,1233688E+002	1,3798130E+001	-1,8350337E+000
8,9003143E+001	1,4049413E+001	-1,9305871E+000
7,0473549E+001	1,4330956E+001	-2,0375705E+000
5,5839867E+001	1,4643214E+001	-2,1394532E+000
4,4221729E+001	1,4994282E+001	-2,2175114E+000
3,5011173E+001	1,5354958E+001	-2,2898343E+000
2,7736723E+001	1,5741192E+001	-2,3272281E+000
2,1960661E+001	1,6126104E+001	-2,3181472E+000
1,7399788E+001	1,6506401E+001	-2,3120289E+000
1,3786777E+001	1,6846186E+001	-2,2656174E+000
1,0911301E+001	1,7157894E+001	-2,2387934E+000
8,6421518E+000	1,7459566E+001	-2,1918137E+000
6,8470612E+000	1,7772390E+001	-2,1522110E+000
5,4197016E+000	1,8043552E+001	-2,1484380E+000
4,2925849E+000	1,8325481E+001	-2,1652720E+000
3,4004376E+000	1,8605042E+001	-2,1764479E+000
2,6930346E+000	1,8875441E+001	-2,1804619E+000
2,1345615E+000	1,9089178E+001	-2,2426527E+000
1,6891882E+000	1,9464911E+001	-2,2806501E+000
1,3384447E+000	1,9575348E+001	-2,2518237E+000
1,0601133E+000	2,0012905E+001	-2,3304927E+000
8,3950907E-001	1,9988190E+001	-2,4787612E+000
6,6517669E-001	2,0247490E+001	-2,2315166E+000
5,2644908E-001	2,0735138E+001	-2,4440649E+000
4,1728988E-001	2,0605635E+001	-2,8209124E+000
3,3019856E-001	2,0425966E+001	-2,5689726E+000
2,6168153E-001	2,0811428E+001	-2,2698598E+000
2,0727515E-001	2,1440735E+001	-2,5289731E+000
1,6422123E-001	2,1527601E+001	-3,2309601E+000
1,3006553E-001	2,1052076E+001	-3,4535663E+000
1,0297224E-001	2,0882595E+001	-3,0380859E+000
8,1555545E-002	2,1332272E+001	-2,6102898E+000
6,4581856E-002	2,2126217E+001	-2,6795683E+000
5,1141009E-002	2,2663136E+001	-3,3444350E+000
4,0509924E-002	2,2527557E+001	-3,9455254E+000
3,2105520E-002	2,2362232E+001	-3,9332883E+000
2,5420561E-002	2,2745554E+001	-3,7085426E+000
2,0124838E-002	2,3492447E+001	-3,7072456E+000
1,5937239E-002	2,4273554E+001	-3,9072776E+000
1,2632385E-002	2,4893721E+001	-4,2965436E+000
1,0003746E-002	2,5518879E+001	-4,6287413E+000