freq/Hz	Re(Z)/Ohm	-Im(Z)/Ohm	|Z|/Ohm	Phase(Z)/deg	time/s	<Ewe>/V	<I>/mA	Cs/ F	Cp/ F	cycle number	I Range	|Ewe|/V	|I|/A	Ns	(Q-Qo)/mA.h	Analog IN 1/V	Analog IN 2/V	THD Ewe/%	NSD Ewe/%	NSR Ewe/%	THD I/%	NSD I/%	NSR I/%	|Ewe h2|/V	|Ewe h3|/V	|Ewe h4|/V	|Ewe h5|/V	|Ewe h6|/V	|Ewe h7|/V	|I h2|/A	|I h3|/A	|I h4|/A	|I h5|/A	|I h6|/A	|I h7|/A	Re(Y)/Ohm-1	Im(Y)/Ohm-1	|Y|/Ohm-1	Phase(Y)/deg	Re(C)/nF	Im(C)/nF	|C|/nF	Phase(C)/deg	Re(M)	Im(M)	|M|	Phase(M)/deg	Re(Permittivity)	Im(Permittivity)	|Permittivity|	Phase(Permittivity)/deg	Re(Resistivity)/Ohm.cm	Im(Resistivity)/Ohm.cm	|Resistivity|/Ohm.cm	Phase(Resistivity)/deg	Re(Conductivity)/mS/cm	Im(Conductivity)/mS/cm	|Conductivity|/mS/cm	Phase(Conductivity)/deg	Tan(Delta)	Loss Angle(Delta)/deg	dq/mA.h	
1,0000186E+006	1,8998955E+000	2,7826399E-001	1,9201651E+000	-8,3324556E+000	3,062492492113961E+000	3,2459970E+000	2,8506717E-001	5,7194602E-001	1,2011353E-002	1,000000000000000E+000	37	1,2766681E-002	6,6487412E-003	0	8,920596714002183E-005	-4,6431704E-004	-4,6521865E-004	-1	-1	-1	-1	-1	-1	0	0	0	0	0	0	0	0	0	0	0	0	5,1529104E-001	7,5470962E-002	5,2078855E-001	8,3324556E+000	1,2011358E+001	8,2009598E+001	8,2884537E+001	-8,1667542E+001	0,0000000E+000	0,0000000E+000	0,0000000E+000	8,1667542E+001	0,0000000E+000	0,0000000E+000	0,0000000E+000	-8,1667542E+001	0,0000000E+000	0,0000000E+000	0,0000000E+000	-8,3324556E+000	0,0000000E+000	0,0000000E+000	0,0000000E+000	8,3324556E+000	6,8276730E+000	8,3324556E+000	8,920596714002183E-005
7,9201306E+005	1,9337492E+000	3,0161235E-001	1,9571295E+000	-8,8651571E+000	3,889486211381154E+000	3,2459831E+000	2,6650217E-001	6,6625220E-001	1,5823325E-002	1,000000000000000E+000	37	1,4606298E-002	7,4631232E-003	0	1,484212787292070E-004	-7,3898648E-004	-4,3084644E-004	-1	-1	-1	-1	-1	-1	0	0	0	0	0	0	0	0	0	0	0	0	5,0484848E-001	7,8742653E-002	5,1095241E-001	8,8651571E+000	1,5823329E+001	1,0144924E+002	1,0267583E+002	-8,1134842E+001	0,0000000E+000	0,0000000E+000	0,0000000E+000	8,1134842E+001	0,0000000E+000	0,0000000E+000	0,0000000E+000	-8,1134842E+001	0,0000000E+000	0,0000000E+000	0,0000000E+000	-8,8651571E+000	0,0000000E+000	0,0000000E+000	0,0000000E+000	8,8651571E+000	6,4113727E+000	8,8651571E+000	5,921531158918515E-005
6,2729181E+005	1,9739577E+000	3,4094477E-001	2,0031855E+000	-9,7995224E+000	4,743491051922319E+000	3,2459786E+000	2,6467550E-001	7,4416029E-001	2,1557191E-002	1,000000000000000E+000	37	1,4943807E-002	7,4600214E-003	0	2,273168373188884E-004	-5,3298433E-004	-7,7456731E-004	-1	-1	-1	-1	-1	-1	0	0	0	0	0	0	0	0	0	0	0	0	4,9192113E-001	8,4965311E-002	4,9920487E-001	9,7995224E+000	2,1557192E+001	1,2480903E+002	1,2665704E+002	-8,0200478E+001	0,0000000E+000	0,0000000E+000	0,0000000E+000	8,0200478E+001	0,0000000E+000	0,0000000E+000	0,0000000E+000	-8,0200478E+001	0,0000000E+000	0,0000000E+000	0,0000000E+000	-9,7995224E+000	0,0000000E+000	0,0000000E+000	0,0000000E+000	9,7995224E+000	5,7896700E+000	9,7995224E+000	7,889555858968137E-005
4,9682675E+005	2,0040519E+000	3,7654293E-001	2,0391195E+000	-1,0641285E+001	5,597501519165235E+000	3,2459793E+000	2,6724774E-001	8,5074747E-001	2,9009772E-002	1,000000000000000E+000	37	1,4895364E-002	7,3048021E-003	0	2,749102792858353E-004	-3,9564978E-004	-6,0270686E-004	-1	-1	-1	-1	-1	-1	0	0	0	0	0	0	0	0	0	0	0	0	4,8197401E-001	9,0558484E-002	4,9040776E-001	1,0641285E+001	2,9009760E+001	1,5439697E+002	1,5709866E+002	-7,9358719E+001	0,0000000E+000	0,0000000E+000	0,0000000E+000	7,9358719E+001	0,0000000E+000	0,0000000E+000	0,0000000E+000	-7,9358719E+001	0,0000000E+000	0,0000000E+000	0,0000000E+000	-1,0641285E+001	0,0000000E+000	0,0000000E+000	0,0000000E+000	1,0641285E+001	5,3222404E+000	1,0641285E+001	4,759344196694694E-005
3,9349206E+005	2,0420969E+000	4,2638859E-001	2,0861368E+000	-1,1793879E+001	6,451485026424052E+000	3,2459829E+000	2,6087302E-001	9,4859010E-001	3,9628182E-002	1,000000000000000E+000	37	1,4945653E-002	7,1642725E-003	0	3,299719041413886E-004	-6,0165196E-004	-7,0582319E-004	-1	-1	-1	-1	-1	-1	0	0	0	0	0	0	0	0	0	0	0	0	4,6923539E-001	9,7976059E-002	4,7935495E-001	1,1793879E+001	3,9628174E+001	1,8979070E+002	1,9388373E+002	-7,8206123E+001	0,0000000E+000	0,0000000E+000	0,0000000E+000	7,8206123E+001	0,0000000E+000	0,0000000E+000	0,0000000E+000	-7,8206123E+001	0,0000000E+000	0,0000000E+000	0,0000000E+000	-1,1793879E+001	0,0000000E+000	0,0000000E+000	0,0000000E+000	1,1793879E+001	4,7892857E+000	1,1793879E+001	5,506162485555333E-005
3,1165566E+005	2,0818527E+000	4,8413247E-001	2,1374037E+000	-1,3091389E+001	7,305500826943899E+000	3,2459712E+000	2,6689357E-001	1,0548261E+000	5,4117311E-002	1,000000000000000E+000	37	1,4889075E-002	6,9659627E-003	0	3,895551708867101E-004	-6,0165196E-004	-3,6210232E-004	-1	-1	-1	-1	-1	-1	0	0	0	0	0	0	0	0	0	0	0	0	4,5569772E-001	1,0597198E-001	4,6785733E-001	1,3091389E+001	5,4117302E+001	2,3271375E+002	2,3892336E+002	-7,6908615E+001	0,0000000E+000	0,0000000E+000	0,0000000E+000	7,6908615E+001	0,0000000E+000	0,0000000E+000	0,0000000E+000	-7,6908615E+001	0,0000000E+000	0,0000000E+000	0,0000000E+000	-1,3091389E+001	0,0000000E+000	0,0000000E+000	0,0000000E+000	1,3091389E+001	4,3001714E+000	1,3091389E+001	5,958326674532146E-005
2,4683603E+005	2,1295452E+000	5,5656016E-001	2,2010729E+000	-1,4646732E+001	8,159476120868931E+000	3,2459641E+000	2,5295120E-001	1,1585091E+000	7,4072130E-002	1,000000000000000E+000	37	1,4868260E-002	6,7550060E-003	0	4,496162071990289E-004	-5,3298433E-004	-6,0270686E-004	-1	-1	-1	-1	-1	-1	0	0	0	0	0	0	0	0	0	0	0	0	4,3955985E-001	1,1487969E-001	4,5432389E-001	1,4646732E+001	7,4072098E+001	2,8341937E+002	2,9293893E+002	-7,5353271E+001	0,0000000E+000	0,0000000E+000	0,0000000E+000	7,5353271E+001	0,0000000E+000	0,0000000E+000	0,0000000E+000	-7,5353271E+001	0,0000000E+000	0,0000000E+000	0,0000000E+000	-1,4646732E+001	0,0000000E+000	0,0000000E+000	0,0000000E+000	1,4646732E+001	3,8262625E+000	1,4646732E+001	6,006103631231880E-005
1,9549808E+005	2,1786594E+000	6,4281541E-001	2,2715125E+000	-1,6438740E+001	9,013496081432095E+000	3,2459633E+000	2,4527174E-001	1,2664597E+000	1,0142235E-001	1,000000000000000E+000	37	1,4924929E-002	6,5704808E-003	0	4,920793452989051E-004	-7,0465269E-004	-4,3084644E-004	-1	-1	-1	-1	-1	-1	0	0	0	0	0	0	0	0	0	0	0	0	4,2223975E-001	1,2458220E-001	4,4023532E-001	1,6438740E+001	1,0142232E+002	3,4374530E+002	3,5839548E+002	-7,3561264E+001	0,0000000E+000	0,0000000E+000	0,0000000E+000	7,3561264E+001	0,0000000E+000	0,0000000E+000	0,0000000E+000	-7,3561264E+001	0,0000000E+000	0,0000000E+000	0,0000000E+000	-1,6438740E+001	0,0000000E+000	0,0000000E+000	0,0000000E+000	1,6438740E+001	3,3892457E+000	1,6438740E+001	4,246313809987622E-005
1,5483967E+005	2,2413685E+000	7,4518150E-001	2,3619967E+000	-1,8390274E+001	9,867477508640150E+000	3,2459776E+000	2,6083574E-001	1,3793542E+000	1,3729079E-001	1,000000000000000E+000	37	1,4889011E-002	6,3035698E-003	0	5,575616259065250E-004	-4,6431704E-004	-6,0270686E-004	-1	-1	-1	-1	-1	-1	0	0	0	0	0	0	0	0	0	0	0	0	4,0174893E-001	1,3356833E-001	4,2337063E-001	1,8390274E+001	1,3729079E+002	4,1294537E+002	4,3516968E+002	-7,1609726E+001	0,0000000E+000	0,0000000E+000	0,0000000E+000	7,1609726E+001	0,0000000E+000	0,0000000E+000	0,0000000E+000	-7,1609726E+001	0,0000000E+000	0,0000000E+000	0,0000000E+000	-1,8390274E+001	0,0000000E+000	0,0000000E+000	0,0000000E+000	1,8390274E+001	3,0078156E+000	1,8390274E+001	6,548228060761988E-005
1,2263398E+005	2,3126628E+000	8,6468422E-001	2,4690259E+000	-2,0500326E+001	1,072148392253439E+001	3,2459867E+000	2,4374330E-001	1,5009001E+000	1,8408380E-001	1,000000000000000E+000	37	1,4911728E-002	6,0395189E-003	0	6,104324807130421E-004	-5,6731811E-004	-6,7145098E-004	-1	-1	-1	-1	-1	-1	0	0	0	0	0	0	0	0	0	0	0	0	3,7936831E-001	1,4184247E-001	4,0501803E-001	2,0500326E+001	1,8408382E+002	4,9234595E+002	5,2563428E+002	-6,9499672E+001	0,0000000E+000	0,0000000E+000	0,0000000E+000	6,9499672E+001	0,0000000E+000	0,0000000E+000	0,0000000E+000	-6,9499672E+001	0,0000000E+000	0,0000000E+000	0,0000000E+000	-2,0500326E+001	0,0000000E+000	0,0000000E+000	0,0000000E+000	2,0500326E+001	2,6745751E+000	2,0500326E+001	5,287085480651713E-005
9,7127375E+004	2,3934016E+000	1,0091499E+000	2,5974517E+000	-2,2862152E+001	1,157548174975091E+001	3,2459841E+000	2,6247600E-001	1,6237634E+000	2,4509768E-001	1,000000000000000E+000	37	1,4742844E-002	5,6758877E-003	0	6,700502935993329E-004	-6,0165196E-004	-4,6521865E-004	1,1631257E-001	5,4743826E-002	1,7613436E+000	2,1702521E-001	1,0701843E-001	2,9822323E+000	6,3619559E-006	1,1126302E-005	6,4146379E-006	5,7654133E-006	5,0787635E-006	4,2093147E-006	5,1826614E-006	6,7565811E-006	2,3922219E-006	5,9504396E-006	3,0083747E-006	2,6501293E-006	3,5474855E-001	1,4957559E-001	3,8499272E-001	2,2862152E+001	2,4509767E+002	5,8129840E+002	6,3085712E+002	-6,7137848E+001	0,0000000E+000	0,0000000E+000	0,0000000E+000	6,7137848E+001	0,0000000E+000	0,0000000E+000	0,0000000E+000	-6,7137848E+001	0,0000000E+000	0,0000000E+000	0,0000000E+000	-2,2862152E+001	0,0000000E+000	0,0000000E+000	0,0000000E+000	2,2862152E+001	2,3717008E+000	2,2862152E+001	5,961781288629081E-005
7,6928070E+004	2,4920468E+000	1,1772909E+000	2,7561407E+000	-2,5286951E+001	1,242948787033674E+001	3,2459776E+000	2,4722889E-001	1,7573227E+000	3,2063898E-001	1,000000000000000E+000	37	1,4796332E-002	5,3684963E-003	0	7,422978585058720E-004	-4,9865089E-004	-8,4331143E-004	7,7821076E-002	4,2271208E-002	1,7487504E+000	2,1948899E-001	9,0980791E-002	3,2001519E+000	6,4718815E-006	2,2750617E-006	4,9805467E-006	3,6414961E-006	4,1703429E-006	4,0255677E-006	7,1305294E-006	4,5888946E-006	5,3093991E-006	2,3644270E-006	2,3239243E-006	3,1509512E-006	3,2806012E-001	1,5498191E-001	3,6282617E-001	2,5286951E+001	3,2063898E+002	6,7871704E+002	7,5064386E+002	-6,4713051E+001	0,0000000E+000	0,0000000E+000	0,0000000E+000	6,4713051E+001	0,0000000E+000	0,0000000E+000	0,0000000E+000	-6,4713051E+001	0,0000000E+000	0,0000000E+000	0,0000000E+000	-2,5286951E+001	0,0000000E+000	0,0000000E+000	0,0000000E+000	2,5286951E+001	2,1167638E+000	2,5286951E+001	7,224756490653908E-005
6,0922652E+004	2,6103652E+000	1,3761134E+000	2,9508803E+000	-2,7796978E+001	1,328347636424587E+001	3,2459838E+000	2,4775077E-001	1,8983972E+000	4,1285008E-001	1,000000000000000E+000	37	1,4573399E-002	4,9386616E-003	0	8,058613673760814E-004	-5,3298433E-004	-7,0582319E-004	8,5997254E-002	4,1403659E-002	1,7983288E+000	2,1548219E-001	7,0633896E-002	3,4807670E+000	3,9181409E-006	4,9167497E-006	3,2765320E-006	5,5317578E-006	7,3009410E-006	3,2915034E-006	8,6160717E-006	1,8627510E-006	3,6135709E-006	2,6562254E-006	2,6415189E-006	1,6944845E-006	2,9977685E-001	1,5803421E-001	3,3888194E-001	2,7796978E+001	4,1285010E+002	7,8314001E+002	8,8529852E+002	-6,2203022E+001	0,0000000E+000	0,0000000E+000	0,0000000E+000	6,2203022E+001	0,0000000E+000	0,0000000E+000	0,0000000E+000	-6,2203022E+001	0,0000000E+000	0,0000000E+000	0,0000000E+000	-2,7796978E+001	0,0000000E+000	0,0000000E+000	0,0000000E+000	2,7796978E+001	1,8969114E+000	2,7796978E+001	6,356350887020941E-005
4,8257500E+004	2,7485926E+000	1,6105857E+000	3,1857100E+000	-3,0368914E+001	1,413750051145325E+001	3,2459977E+000	2,6622254E-001	2,0477242E+000	5,2339154E-001	1,000000000000000E+000	37	1,4323266E-002	4,4960985E-003	0	8,621541976512978E-004	-6,7031919E-004	-4,6521865E-004	1,1328793E-001	7,1640946E-002	1,8116598E+000	2,6486528E-001	1,8352030E-001	3,7892411E+000	7,9685151E-006	6,9696753E-006	5,4998404E-006	4,1188023E-006	5,2525838E-006	4,3356417E-006	6,7415685E-006	3,8835283E-006	3,4560469E-006	4,4674575E-006	4,8924871E-006	3,2798821E-006	2,7083072E-001	1,5869798E-001	3,1390178E-001	3,0368914E+001	5,2339154E+002	8,9320929E+002	1,0352592E+003	-5,9631088E+001	0,0000000E+000	0,0000000E+000	0,0000000E+000	5,9631088E+001	0,0000000E+000	0,0000000E+000	0,0000000E+000	-5,9631088E+001	0,0000000E+000	0,0000000E+000	0,0000000E+000	-3,0368914E+001	0,0000000E+000	0,0000000E+000	0,0000000E+000	3,0368914E+001	1,7065796E+000	3,0368914E+001	5,629283027521641E-005
3,8218156E+004	2,9196951E+000	1,8855115E+000	3,4755969E+000	-3,2853992E+001	1,485447745220154E+001	3,2459912E+000	2,5166506E-001	2,2086210E+000	6,5001112E-001	1,000000000000000E+000	37	1,4914653E-002	4,2912494E-003	0	9,161465601012978E-004	-1,0136559E-003	-6,7145098E-004	1,2101962E-001	3,9507300E-002	1,7267734E+000	2,7430674E-001	1,2144151E-001	4,0309367E+000	3,8518783E-006	1,0310331E-005	4,6337000E-006	3,4842803E-006	8,5411157E-006	6,9249218E-006	6,5174499E-006	5,2481282E-006	3,9964643E-006	3,9770030E-006	3,3466131E-006	3,3546612E-006	2,4170114E-001	1,5608831E-001	2,8772035E-001	3,2853992E+001	6,5001117E+002	1,0065356E+003	1,1981771E+003	-5,7146008E+001	0,0000000E+000	0,0000000E+000	0,0000000E+000	5,7146008E+001	0,0000000E+000	0,0000000E+000	0,0000000E+000	-5,7146008E+001	0,0000000E+000	0,0000000E+000	0,0000000E+000	-3,2853992E+001	0,0000000E+000	0,0000000E+000	0,0000000E+000	3,2853992E+001	1,5484897E+000	3,2853992E+001	5,399236244999991E-005
3,0266479E+004	3,1312377E+000	2,2019486E+000	3,8279533E+000	-3,5115650E+001	1,557148383292952E+001	3,2459869E+000	2,5761104E-001	2,3880920E+000	7,9019117E-001	1,000000000000000E+000	37	1,4899809E-002	3,8923696E-003	0	9,640233364699977E-004	-1,3569925E-003	-6,3707912E-004	1,0661469E-001	2,8136000E-002	1,7381895E+000	2,8231940E-001	1,4090207E-001	4,3800383E+000	2,9426892E-006	7,0351020E-006	7,1498835E-006	6,4532896E-006	1,8758402E-006	8,4657340E-006	5,7429820E-006	5,7818461E-006	3,6771223E-006	4,6992141E-006	3,0716142E-006	1,8872096E-006	2,1368928E-001	1,5027055E-001	2,6123619E-001	3,5115650E+001	7,9019110E+002	1,1236757E+003	1,3736990E+003	-5,4884350E+001	0,0000000E+000	0,0000000E+000	0,0000000E+000	5,4884350E+001	0,0000000E+000	0,0000000E+000	0,0000000E+000	-5,4884350E+001	0,0000000E+000	0,0000000E+000	0,0000000E+000	-3,5115650E+001	0,0000000E+000	0,0000000E+000	0,0000000E+000	3,5115650E+001	1,4220303E+000	3,5115650E+001	4,787677636869999E-005
2,3975656E+004	3,3909922E+000	2,5686750E+000	4,2540474E+000	-3,7143913E+001	1,628849829363753E+001	3,2459869E+000	2,5880393E-001	2,5842855E+000	9,4222403E-001	1,000000000000000E+000	37	1,4575329E-002	3,4262263E-003	0	1,015905144205537E-003	-3,2698250E-004	-4,6521865E-004	1,2816958E-001	6,3907459E-002	1,7735360E+000	3,1938607E-001	1,4077879E-001	5,0971694E+000	2,8533166E-006	9,8218225E-006	1,1988179E-005	4,3566356E-006	6,3748257E-006	3,9632182E-006	6,4626538E-006	3,0355409E-006	3,6744866E-006	5,5754335E-006	2,8381176E-006	2,3324772E-006	1,8737952E-001	1,4193991E-001	2,3507026E-001	3,7143913E+001	9,4222394E+002	1,2438607E+003	1,5604408E+003	-5,2856087E+001	0,0000000E+000	0,0000000E+000	0,0000000E+000	5,2856087E+001	0,0000000E+000	0,0000000E+000	0,0000000E+000	-5,2856087E+001	0,0000000E+000	0,0000000E+000	0,0000000E+000	-3,7143913E+001	0,0000000E+000	0,0000000E+000	0,0000000E+000	3,7143913E+001	1,3201329E+000	3,7143913E+001	5,188180773553898E-005
1,8983818E+004	3,7231641E+000	2,9879525E+000	4,7738676E+000	-3,8748104E+001	1,717249318896211E+001	3,2459884E+000	3,8801894E-002	2,8058398E+000	1,0991818E+000	1,000000000000000E+000	38	1,5477479E-002	3,2421260E-003	0	1,031779545616824E-003	-6,0165196E-004	-6,7145098E-004	1,2317598E-001	5,3043637E-002	1,6331240E+000	8,7378301E-002	1,9943273E-002	6,6302979E-001	7,9165120E-006	2,6231023E-006	1,4235851E-005	5,1950979E-006	3,6389488E-006	5,3404324E-006	5,5944565E-007	2,0228692E-006	1,3995623E-006	7,0785734E-007	6,4066762E-007	4,8338484E-007	1,6336967E-001	1,3110913E-001	2,0947376E-001	3,8748104E+001	1,0991818E+003	1,3696450E+003	1,7561686E+003	-5,1251896E+001	0,0000000E+000	0,0000000E+000	0,0000000E+000	5,1251896E+001	0,0000000E+000	0,0000000E+000	0,0000000E+000	-5,1251896E+001	0,0000000E+000	0,0000000E+000	0,0000000E+000	-3,8748104E+001	0,0000000E+000	0,0000000E+000	0,0000000E+000	3,8748104E+001	1,2460587E+000	3,8748104E+001	1,587440141128738E-005
1,5040457E+004	4,1070561E+000	3,4462085E+000	5,3613677E+000	-3,9999828E+001	1,788849162295810E+001	3,2459764E+000	3,6650129E-002	3,0705597E+000	1,2686723E+000	1,000000000000000E+000	38	1,4925387E-002	2,7838766E-003	0	1,040395032512541E-003	-3,6131596E-004	-5,3396280E-004	1,2125842E-001	4,9628675E-002	1,7203242E+000	1,2888648E-001	5,4824647E-002	7,6164556E-001	4,5362062E-006	1,0221758E-005	1,0625518E-005	4,5259235E-006	4,0788873E-006	6,6427451E-006	9,7530472E-007	2,5440318E-006	1,3770664E-006	1,5796537E-006	2,4103062E-007	7,9796752E-007	1,4288263E-001	1,1989204E-001	1,8651956E-001	3,9999828E+001	1,2686724E+003	1,5119540E+003	1,9737108E+003	-5,0000172E+001	0,0000000E+000	0,0000000E+000	0,0000000E+000	5,0000172E+001	0,0000000E+000	0,0000000E+000	0,0000000E+000	-5,0000172E+001	0,0000000E+000	0,0000000E+000	0,0000000E+000	-3,9999828E+001	0,0000000E+000	0,0000000E+000	0,0000000E+000	3,9999828E+001	1,1917608E+000	3,9999828E+001	8,615486895717332E-006
1,1913598E+004	4,5799017E+000	3,9501505E+000	6,0480733E+000	-4,0777664E+001	1,860448477699538E+001	3,2459874E+000	3,9984029E-002	3,3819215E+000	1,4426359E+000	1,000000000000000E+000	38	1,4047525E-002	2,3226447E-003	0	1,047471808078686E-003	-8,7632105E-004	-5,3396280E-004	1,6061525E-001	4,7987580E-002	1,8178424E+000	1,3960287E-001	2,0593846E-002	9,3182325E-001	5,7179832E-006	1,3678969E-005	1,2841441E-005	9,2202781E-006	2,5612421E-006	4,4698104E-006	9,4284621E-007	2,4266938E-006	1,0525931E-006	1,3449026E-006	3,2653463E-007	7,4157867E-007	1,2520511E-001	1,0798901E-001	1,6534191E-001	4,0777664E+001	1,4426360E+003	1,6726277E+003	2,2088191E+003	-4,9222336E+001	0,0000000E+000	0,0000000E+000	0,0000000E+000	4,9222336E+001	0,0000000E+000	0,0000000E+000	0,0000000E+000	-4,9222336E+001	0,0000000E+000	0,0000000E+000	0,0000000E+000	-4,0777664E+001	0,0000000E+000	0,0000000E+000	0,0000000E+000	4,0777664E+001	1,1594247E+000	4,0777664E+001	7,076775566144467E-006
9,4374268E+003	5,1382651E+000	4,5003200E+000	6,8304205E+000	-4,1213310E+001	1,931963225099389E+001	3,2459691E+000	3,7045415E-002	3,7473404E+000	1,6267284E+000	1,000000000000000E+000	38	1,4968323E-002	2,1914204E-003	0	1,053193831423867E-003	-7,0465269E-004	-5,6833500E-004	1,3961266E-001	5,5483744E-002	1,6831959E+000	2,1815509E-001	2,7287437E-002	9,7489989E-001	3,6403360E-006	1,5028058E-005	8,7069429E-006	4,9052005E-006	3,2093328E-006	7,8316862E-006	1,4213261E-006	3,5939054E-006	7,4497751E-007	2,5482564E-006	6,6196361E-007	4,4720716E-007	1,1013404E-001	9,6460268E-002	1,4640386E-001	4,1213310E+001	1,6267284E+003	1,8573260E+003	2,4689888E+003	-4,8786690E+001	0,0000000E+000	0,0000000E+000	0,0000000E+000	4,8786690E+001	0,0000000E+000	0,0000000E+000	0,0000000E+000	-4,8786690E+001	0,0000000E+000	0,0000000E+000	0,0000000E+000	-4,1213310E+001	0,0000000E+000	0,0000000E+000	0,0000000E+000	4,1213310E+001	1,1417555E+000	4,1213310E+001	5,722023345180712E-006
7,4706152E+003	5,8096700E+000	5,0844679E+000	7,7203679E+000	-4,1191547E+001	2,005020905900165E+001	3,2459695E+000	3,8365547E-002	4,1900406E+000	1,8173277E+000	1,000000000000000E+000	38	1,4612560E-002	1,8927285E-003	0	1,059430149562282E-003	-3,6131596E-004	-6,0270686E-004	1,5606920E-001	9,5890142E-002	1,7402418E+000	2,7086353E-001	7,6451123E-002	1,1213589E+000	9,1752618E-006	1,4857274E-005	3,8426047E-006	1,2137865E-005	3,7641153E-006	5,2298137E-006	1,2555033E-006	3,5512189E-006	1,2749528E-006	3,0373442E-006	7,7999357E-007	7,0610423E-007	9,7471014E-002	8,5304029E-002	1,2952751E-001	4,1191547E+001	1,8173280E+003	2,0765349E+003	2,7594707E+003	-4,8808453E+001	0,0000000E+000	0,0000000E+000	0,0000000E+000	4,8808453E+001	0,0000000E+000	0,0000000E+000	0,0000000E+000	-4,8808453E+001	0,0000000E+000	0,0000000E+000	0,0000000E+000	-4,1191547E+001	0,0000000E+000	0,0000000E+000	0,0000000E+000	4,1191547E+001	1,1426308E+000	4,1191547E+001	6,236318138415093E-006
